;删除本文件可以恢复默认值。
;这是SSCOM的设置保存文件,您在程序中设置好的串口参数和字符串数据都会自动保存,请最好不要用外部编辑器改动本文件!
;如果文件被修改后程序不能打开,请删除本文件,程序将会自动生成一个新的ini文件.
;靠行首的半角分号是注释符号
;每行都以回车结束

;"="后面的H表示这是个HEX数据串
;"="后面的A表示这是个ASC字符串
;Nx表示第几条定义的字符串(1<x<=N)
N101=1,0CH Relay ON,1000
N1=H,01 05 00 00 FF 00 8C 3A

N102=3,0CH Relay OFF,1000
N2=H,01 05 00 00 00 00 CD CA

N103=2,1CH Relay ON,1000
N3=H,01 05 00 01 FF 00 DD FA 

N104=0,1CH Relay OFF,1000
N4=H,01 05 00 01 00 00 9C 0A

N105=0,2CH Relay ON,1000
N5=H,01 05 00 02 FF 00 2D FA

N106=0,2CH Relay OFF,1000
N6=H,01 05 00 02 00 00 6C 0A 

N107=0,3CH Relay ON,1000
N7=H,01 05 00 03 FF 00 7C 3A

N108=0,3CH Relay OFF,1000
N8=H,01 05 00 03 00 00 3D CA

N109=0,4CH Relay ON,1000
N9=H,01 05 00 04 FF 00 CD FB

N110=0,4CH Relay OFF,1000
N10=H,01 05 00 04 00 00 8C 0B

N111=0,5CH Relay ON,1000
N11=H,01 05 00 05 FF 00 9C 3B

N112=0,5CH Relay OFF,1000
N12=H,01 05 00 05 00 00 DD CB

N113=0,6CH Relay ON,1000
N13=H,01 05 00 06 FF 00 6C 3B

N114=0,6CH Relay OFF,1000
N14=H,01 05 00 06 00 00 2D CB

N115=0,7CH Relay ON,1000
N15=H,01 05 00 07 FF 00 3D FB

N116=0,7CH Relay OFF,1000
N16=H,01 05 00 07 00 00 7C 0B

N117=0,8CH Relay ON,1000
N17=H,01 05 00 08 FF 00 0D F8 

N118=0,8CH Relay OFF,1000
N18=H,01 05 00 08 00 00 4C 08

N119=0,9CH Relay ON,1000
N19=H,01 05 00 09 FF 00 5C 38

N120=0,9CH Relay OFF,1000
N20=H,01 05 00 09 00 00 1D C8

N121=0,10CH Relay ON,1000
N21=H,01 05 00 0A FF 00 AC 38

N122=0,10CH Relay OFF,1000
N22=H,01 05 00 0A 00 00 ED C8

N123=0,11CH Relay ON,1000
N23=H,01 05 00 0B FF 00 FD F8

N124=0,11CH Relay OFF,1000
N24=H,01 05 00 0B 00 00 BC 08

N125=0,12CH Relay ON,1000
N25=H,01 05 00 0C FF 00 4C 39

N126=0,12CH Relay OFF,1000
N26=H,01 05 00 0C 00 00 0D C9

N127=0,13CH Relay ON,1000
N27=H,01 05 00 0D FF 00 1D F9

N128=0,13CH Relay OFF,1000
N28=H,01 05 00 0D 00 00 5C 09

N129=0,14CH Relay ON,1000
N29=H,01 05 00 0E FF 00 ED F9

N130=0,14CH Relay OFF,1000
N30=H,01 05 00 0E 00 00 AC 09

N131=0,15CH Relay ON,1000
N31=H,01 05 00 0F FF 00 BC 39

N132=0,15CH Relay OFF,1000
N32=H,01 05 00 0F 00 00 FD C9 

N133=0,16CH Relay ON,1000
N33=H,01 05 00 10 FF 00 8D FF

N134=0,16CH Relay OFF,1000
N34=H,01 05 00 10 00 00 CC 0F

N135=0,17CH Relay ON,1000
N35=H,01 05 00 11 FF 00 DC 3F

N136=0,17CH Relay OFF,1000
N36=H,01 05 00 11 00 00 9D CF

N137=0,18CH Relay ON,1000
N37=H,01 05 00 12 FF 00 2C 3F

N138=0,18CH Relay OFF,1000
N38=H,01 05 00 12 00 00 6D CF

N139=0,19CH Relay ON,1000
N39=H,01 05 00 13 FF 00 7D FF

N140=0,19CH Relay OFF,1000
N40=H,01 05 00 13 00 00 3C 0F

N141=0,20CH Relay ON,1000
N41=H,01 05 00 14 FF 00 CC 3E

N142=0,20CH Relay OFF,1000
N42=H,01 05 00 14 00 00 8D CE

N143=0,21CH Relay ON,1000
N43=H,01 05 00 15 FF 00 9D FE 

N144=0,21CH Relay OFF,1000
N44=H,01 05 00 15 00 00 DC 0E

N145=0,22CH Relay ON,1000
N45=H,01 05 00 16 FF 00 6D FE

N146=0,22CH Relay OFF,1000
N46=H,01 05 00 16 00 00 2C 0E

N147=0,23CH Relay ON,1000
N47=H,01 05 00 17 FF 00 3C 3E

N148=0,23CH Relay OFF,1000
N48=H,01 05 00 17 00 00 7D CE

N149=0,24CH Relay ON,1000
N49=H,01 05 00 18 FF 00 0C 3D

N150=0,24CH Relay OFF,1000
N50=H,01 05 00 18 00 00 4D CD

N151=0,25CH Relay ON,1000
N51=H,01 05 00 19 FF 00 5D FD

N152=0,25CH Relay OFF,1000
N52=H,01 05 00 19 00 00 1C 0D

N153=0,26CH Relay ON,1000
N53=H,01 05 00 1A FF 00 AD FD

N154=0,26CH Relay OFF,1000
N54=H,01 05 00 1A 00 00 EC 0D

N155=0,27CH Relay ON,1000
N55=H,01 05 00 1B FF 00 FC 3D

N156=0,27CH Relay OFF,1000
N56=H,01 05 00 1B 00 00 BD CD

N157=0,28CH Relay ON,1000
N57=H,01 05 00 1C FF 00 4D FC

N158=0,28CH Relay OFF,1000
N58=H,01 05 00 1C 00 00 0C 0C

N159=0,29CH Relay ON,1000
N59=H,01 05 00 1D FF 00 1C 3C

N160=0,29CH Relay OFF,1000
N60=H,01 05 00 1D 00 00 5D CC

N161=0,30CH Relay ON,1000
N61=H,01 05 00 1E FF 00 EC 3C

N162=0,30CH Relay OFF,1000
N62=H,01 05 00 1E 00 00 AD CC

N163=0,31CH Relay ON,1000
N63=H,01 05 00 1F FF 00 BD FC

N164=0,31CH Relay OFF,1000
N64=H,01 05 00 1F 00 00 FC 0C

N165=0,33 none,1000
N65=H,

N166=0,0CH Relay Flip,1000
N66=H,01 05 00 00 55 00 F2 9A

N167=0,1CH Relay Flip,1000
N67=H,01 05 00 01 55 00 A3 5A

N168=0,2CH Relay Flip,1000
N68=H,01 05 00 02 55 00 53 5A

N169=0,3CH Relay Flip,1000
N69=H,01 05 00 03 55 00 02 9A

N170=0,38 none,1000
N70=H,

N171=0,All Relays ON,1000
N71=H,01 05 00 FF FF 00 BC 0A

N172=0,All Relays OFF,1000
N72=H,01 05 00 FF 00 00 FD FA

N173=0,All Relays Flip,1000
N73=H,01 05 00 FF 55 00 C2 AA

N174=0,42 none,1000
N74=H,

N175=0,Read Relay Status,1000
N75=H,01 01 00 00 00 20 3D D2

N176=0,44 none,1000
N76=H,

N177=0,Relays All ON,1000
N77=H,01 0F 00 00 00 20 04 FF FF FF FF C5 1C

N178=0,Relays All OFF,1000
N78=H,01 0F 00 00 00 20 04 00 00 00 00 C4 88

N179=0,0-1 ON；3-15 OFF,1000
N79=H,01 0F 00 00 00 20 04 00 00 00 03 84 89

N180=0,48 none,1000
N80=H,

N181=0,0CH Flash ON 700Ms,1000
N81=H,01 05 02 00 00 07 8D B0

N182=0,1CH Flash ON 800Ms,1000
N82=H,01 05 02 01 00 08 9C 74

N183=0,0CH Flash OFF 500,1000
N83=H,01 05 04 00 00 05 0C F9

N184=0,1CH Flash OFF600,1000
N84=H,01 05 04 01 00 06 1D 38

N185=0,53 none,1000
N85=H,

N186=0,Set Baud 4800,1000
N86=H,00 06 20 00 00 00 83 DB

N187=0,Set Baud 9600,1000
N87=H,00 06 20 00 00 01 42 1B 

N188=0,Set Baud 115200,1000
N88=H,00 06 20 00 00 05 43 D8

N189=0,57 none,1000
N89=H,

N190=0,Set ADDR 0x01,1000
N90=H,00 06 40 00 00 01 5C 1B

N191=0,Set ADDR 0x02,1000
N91=H,00 06 40 00 00 02 1C 1A

N192=0,Set ADDR 0x03,1000
N92=H,00 06 40 00 00 03 DD DA

N193=0,61 none,1000
N93=H,

N194=0,Read Device ADDR ,1000
N94=H,00 03 40 00 00 01 90 1B

N195=0,Read Software Ver,1000
N95=H,00 03 80 00 00 01 AC 1B

N196=0,96 none,1000
N96=A,

N197=0,97 none,1000
N97=A,

N198=0,98 none,1000
N98=A,

N199=0,99 none,1000
N99=A,

;发送文件时每256字节延时时间ms
N1051=,1
;打开文件地址和名称
N1052=,
;主面板ASC字符串
N1053=,
;主面板HEX数据串
N1054=,
;主面板发送方式(ASC or HEX)
N1055=,H
;主面板字符串发送间隔时间ms
N1056=,1000
;主面板字符串发送新行
N1057=,N
;多条字符串发送间隔时间ms
N1058=,1
;接收窗口是否HEX显示方式
N1059=,Y
;校验方式,0=None，1=modbusCRC16，2=ADD，3=XOR
N1060=,0
;保存DTR:
N1061=,Y
;保存RTS:
N1062=,N
;程序启动时是否打开串口
N1063=,N
;是否分包显示
N1064=,Y
;分包超时时间ms
N1065=,20
;接收窗背景颜色
N1066=,16777215
;显示缓冲上限,200K,500K,1M,2M,5M,10M,20M
N1067=,1000000
;远程IP地址
N1068=,120.76.28.211
;远程端口
N1069=,80
;本地端口
N1070=,777
;选择回车后发送行(带回显)
N1071=,N
;选择按键立即发送键值
N1072=,Y
;选择回显
N1073=,N
;第几字节至末尾加校验
N1074=,1
;至末尾倒数第几字节加校验,存第几个项目
N1075=,0
;终端仿真输入回车后是否自动加换行
N1076=,N
;当前串口号Port=COMX,网络模式):1=TCPCLIENT,2=TCPSERVER,3=UDP
N1080=,COM31
;波特率Band rate
N1081=,9600
;保存窗口宽度
N1082=,792
;保存窗口高度
N1083=,600
;保存窗口left
N1084=,1110
;保存窗口top
N1085=,400
;分割线位置(右侧装多条自定义字符串的容器宽度)
N1086=,418
;多条发送按钮的宽度
N1087=,120
;保存窗口字体名称
N1088=,宋体
;保存窗口字体大小
N1089=,9
;保存窗口字体颜色
N1090=,0
;C:Chinese汉语,E:English
N1100=,English
;end